<Qucs Dataset 0.0.18>
<indep time 101>
  +0.00000000000e+00
  +1.00000000000e-03
  +2.00000000000e-03
  +3.00000000000e-03
  +4.00000000000e-03
  +5.00000000000e-03
  +6.00000000000e-03
  +7.00000000000e-03
  +8.00000000000e-03
  +9.00000000000e-03
  +1.00000000000e-02
  +1.10000000000e-02
  +1.20000000000e-02
  +1.30000000000e-02
  +1.40000000000e-02
  +1.50000000000e-02
  +1.60000000000e-02
  +1.70000000000e-02
  +1.80000000000e-02
  +1.90000000000e-02
  +2.00000000000e-02
  +2.10000000000e-02
  +2.20000000000e-02
  +2.30000000000e-02
  +2.40000000000e-02
  +2.50000000000e-02
  +2.60000000000e-02
  +2.70000000000e-02
  +2.80000000000e-02
  +2.90000000000e-02
  +3.00000000000e-02
  +3.10000000000e-02
  +3.20000000000e-02
  +3.30000000000e-02
  +3.40000000000e-02
  +3.50000000000e-02
  +3.60000000000e-02
  +3.70000000000e-02
  +3.80000000000e-02
  +3.90000000000e-02
  +4.00000000000e-02
  +4.10000000000e-02
  +4.20000000000e-02
  +4.30000000000e-02
  +4.40000000000e-02
  +4.50000000000e-02
  +4.60000000000e-02
  +4.70000000000e-02
  +4.80000000000e-02
  +4.90000000000e-02
  +5.00000000000e-02
  +5.10000000000e-02
  +5.20000000000e-02
  +5.30000000000e-02
  +5.40000000000e-02
  +5.50000000000e-02
  +5.60000000000e-02
  +5.70000000000e-02
  +5.80000000000e-02
  +5.90000000000e-02
  +6.00000000000e-02
  +6.10000000000e-02
  +6.20000000000e-02
  +6.30000000000e-02
  +6.40000000000e-02
  +6.50000000000e-02
  +6.60000000000e-02
  +6.70000000000e-02
  +6.80000000000e-02
  +6.90000000000e-02
  +7.00000000000e-02
  +7.10000000000e-02
  +7.20000000000e-02
  +7.30000000000e-02
  +7.40000000000e-02
  +7.50000000000e-02
  +7.60000000000e-02
  +7.70000000000e-02
  +7.80000000000e-02
  +7.90000000000e-02
  +8.00000000000e-02
  +8.10000000000e-02
  +8.20000000000e-02
  +8.30000000000e-02
  +8.40000000000e-02
  +8.50000000000e-02
  +8.60000000000e-02
  +8.70000000000e-02
  +8.80000000000e-02
  +8.90000000000e-02
  +9.00000000000e-02
  +9.10000000000e-02
  +9.20000000000e-02
  +9.30000000000e-02
  +9.40000000000e-02
  +9.50000000000e-02
  +9.60000000000e-02
  +9.70000000000e-02
  +9.80000000000e-02
  +9.90000000000e-02
  +1.00000000000e-01
</indep>
<dep V3.It time>
  +1.55455563019e-10
  -1.34672734757e-11
  +1.27716608180e-12
  -4.96844725425e-12
  +6.15111190741e-12
  -7.52444743424e-12
  +1.20340606544e-11
  -6.24943988890e-12
  +8.06946611431e-12
  +7.12813574066e-12
  +2.97585096234e-12
  +8.39394141060e-12
  -4.63750212756e-12
  -1.22151537905e-12
  -7.62431109844e-12
  +1.22595879195e-11
  -1.20312057609e-13
  +1.29741318717e-11
  +3.96667890438e-12
  +4.40930240544e-12
  +1.47074692134e-12
  -8.85561057122e-13
  -1.08644165755e-11
  -7.40928922768e-12
  +5.80713600851e-12
  -9.90487889936e-13
  -1.35262704740e-12
  +1.29941118611e-11
  -4.11736040747e-12
  +1.12369337661e-12
  -3.64560987740e-12
  -8.06039409368e-12
  +4.81272607349e-12
  -3.65964596486e-12
  +9.79073145962e-13
  -4.46598688372e-12
  -1.08288750481e-11
  -7.32458160970e-12
  -7.14117490118e-12
  +2.86990666405e-12
  +6.14765939124e-12
  -6.59007325433e-12
  -3.21975704643e-12
  +9.39721248592e-13
  -3.09204592302e-12
  -1.39173466765e-11
  -1.25982639798e-11
  -4.18718655019e-12
  +6.57437936466e-12
  +3.06561589116e-12
  -6.36267785869e-12
  +8.08974239579e-12
  -1.20165928004e-11
  +8.25415451080e-12
  -3.64296646165e-13
  -1.66513208473e-12
  -7.22414966281e-12
  -1.03755238678e-11
  -1.08509032091e-11
  +8.42411291892e-12
  +3.20419016855e-12
  -2.92419216874e-13
  +4.08382967056e-12
  -8.73534311348e-13
  +1.55255247019e-11
  -9.68894790672e-13
  +3.53457147107e-12
  -7.49494909121e-12
  -5.78109788587e-12
  +2.28790040696e-14
  -9.12783788824e-13
  -2.66870819708e-12
  -5.87585141775e-14
  -5.31368272092e-12
  -1.50429624584e-11
  -1.54369010165e-12
  +3.86513546287e-12
  -1.10594013593e-12
  +1.09552515109e-11
  +3.99680898994e-12
  +1.37171349783e-11
  +1.01227008313e-12
  -1.49959201815e-12
  +1.24938045593e-11
  -1.98181723605e-11
  -3.09670595325e-13
  +4.57758014569e-12
  -3.13677607396e-12
  -9.43072196073e-13
  -3.55049006984e-12
  -6.08089694134e-12
  -3.48659494284e-13
  +3.72853108489e-12
  +5.06964995998e-12
  +2.06223581254e-11
  -1.55431209458e-11
  +7.84980735440e-13
  -3.32557490694e-12
  -2.81391443217e-13
  -8.50764842301e-12
  +2.09996862071e-12
</dep>
<dep V4.It time>
  +1.54304195387e-03
  +1.64598985094e-03
  +1.64243902510e-03
  +1.63922589278e-03
  +1.63631839911e-03
  +1.63368767446e-03
  +1.63130730627e-03
  +1.62915342819e-03
  +1.62720498021e-03
  +1.62544145337e-03
  +1.62384593661e-03
  +1.62240224267e-03
  +1.62109492585e-03
  +1.61991384315e-03
  +1.61884511299e-03
  +1.61787800760e-03
  +1.61700204469e-03
  +1.61620967311e-03
  +1.61549309892e-03
  +1.61484431597e-03
  +1.61425719754e-03
  +1.61372497159e-03
  +1.61324511734e-03
  +1.61281026070e-03
  +1.61241655974e-03
  +1.61206011232e-03
  +1.61173750097e-03
  +1.61144665156e-03
  +1.61118254433e-03
  +1.61094397067e-03
  +1.61072865850e-03
  +1.61053369324e-03
  +1.61035695560e-03
  +1.61019719907e-03
  +1.61005186021e-03
  +1.60992073895e-03
  +1.60980202199e-03
  +1.60969459825e-03
  +1.60959708627e-03
  +1.60950990856e-03
  +1.60943028965e-03
  +1.60935898760e-03
  +1.60929162687e-03
  +1.60923247393e-03
  +1.60917896050e-03
  +1.60913098933e-03
  +1.60908743107e-03
  +1.60904855283e-03
  +1.60901282841e-03
  +1.60898050607e-03
  +1.60895083531e-03
  +1.60892463796e-03
  +1.60890174284e-03
  +1.60887953512e-03
  +1.60886073475e-03
  +1.60884209545e-03
  +1.60882625342e-03
  +1.60881245312e-03
  +1.60880021114e-03
  +1.60878822319e-03
  +1.60877787470e-03
  +1.60876815481e-03
  +1.60875911471e-03
  +1.60875110715e-03
  +1.60874338332e-03
  +1.60873668921e-03
  +1.60873064312e-03
  +1.60872492050e-03
  +1.60871918625e-03
  +1.60871491573e-03
  +1.60871193726e-03
  +1.60870840681e-03
  +1.60870519819e-03
  +1.60870238554e-03
  +1.60869976834e-03
  +1.60869744227e-03
  +1.60869582938e-03
  +1.60869370074e-03
  +1.60869176828e-03
  +1.60869023035e-03
  +1.60868863016e-03
  +1.60868752254e-03
  +1.60868632751e-03
  +1.60868478178e-03
  +1.60868369301e-03
  +1.60868303706e-03
  +1.60868231114e-03
  +1.60868247714e-03
  +1.60868221560e-03
  +1.60868187252e-03
  +1.60868128869e-03
  +1.60868052028e-03
  +1.60867951938e-03
  +1.60867907252e-03
  +1.60867852974e-03
  +1.60867806734e-03
  +1.60867775138e-03
  +1.60867734930e-03
  +1.60867697104e-03
  +1.60867680104e-03
  +1.60867648409e-03
</dep>
<dep vin.Vt time>
  +0.00000000000e+00
  +0.00000000000e+00
  +0.00000000000e+00
  +0.00000000000e+00
  +0.00000000000e+00
  +0.00000000000e+00
  +0.00000000000e+00
  +0.00000000000e+00
  +0.00000000000e+00
  +0.00000000000e+00
  +0.00000000000e+00
  +0.00000000000e+00
  +0.00000000000e+00
  +0.00000000000e+00
  +0.00000000000e+00
  +0.00000000000e+00
  +0.00000000000e+00
  +0.00000000000e+00
  +0.00000000000e+00
  +0.00000000000e+00
  +0.00000000000e+00
  +0.00000000000e+00
  +0.00000000000e+00
  +0.00000000000e+00
  +0.00000000000e+00
  +0.00000000000e+00
  +0.00000000000e+00
  +0.00000000000e+00
  +0.00000000000e+00
  +0.00000000000e+00
  +0.00000000000e+00
  +0.00000000000e+00
  +0.00000000000e+00
  +0.00000000000e+00
  +0.00000000000e+00
  +0.00000000000e+00
  +0.00000000000e+00
  +0.00000000000e+00
  +0.00000000000e+00
  +0.00000000000e+00
  +0.00000000000e+00
  +0.00000000000e+00
  +0.00000000000e+00
  +0.00000000000e+00
  +0.00000000000e+00
  +0.00000000000e+00
  +0.00000000000e+00
  +0.00000000000e+00
  +0.00000000000e+00
  +0.00000000000e+00
  +0.00000000000e+00
  +0.00000000000e+00
  +0.00000000000e+00
  +0.00000000000e+00
  +0.00000000000e+00
  +0.00000000000e+00
  +0.00000000000e+00
  +0.00000000000e+00
  +0.00000000000e+00
  +0.00000000000e+00
  +0.00000000000e+00
  +0.00000000000e+00
  +0.00000000000e+00
  +0.00000000000e+00
  +0.00000000000e+00
  +0.00000000000e+00
  +0.00000000000e+00
  +0.00000000000e+00
  +0.00000000000e+00
  +0.00000000000e+00
  +0.00000000000e+00
  +0.00000000000e+00
  +0.00000000000e+00
  +0.00000000000e+00
  +0.00000000000e+00
  +0.00000000000e+00
  +0.00000000000e+00
  +0.00000000000e+00
  +0.00000000000e+00
  +0.00000000000e+00
  +0.00000000000e+00
  +0.00000000000e+00
  +0.00000000000e+00
  +0.00000000000e+00
  +0.00000000000e+00
  +0.00000000000e+00
  +0.00000000000e+00
  +0.00000000000e+00
  +0.00000000000e+00
  +0.00000000000e+00
  +0.00000000000e+00
  +0.00000000000e+00
  +0.00000000000e+00
  +0.00000000000e+00
  +0.00000000000e+00
  +0.00000000000e+00
  +0.00000000000e+00
  +0.00000000000e+00
  +0.00000000000e+00
  +0.00000000000e+00
  +0.00000000000e+00
</dep>
<dep vout.Vt time>
  +1.54369669241e+00
  +1.65429032745e+00
  +1.65730993958e+00
  +1.65972124907e+00
  +1.66161255424e+00
  +1.66306057901e+00
  +1.66413269736e+00
  +1.66488743862e+00
  +1.66537454711e+00
  +1.66563990361e+00
  +1.66572008160e+00
  +1.66564826274e+00
  +1.66545460251e+00
  +1.66515751195e+00
  +1.66478189472e+00
  +1.66434545843e+00
  +1.66386475311e+00
  +1.66335008008e+00
  +1.66281191982e+00
  +1.66226089986e+00
  +1.66170375474e+00
  +1.66114841884e+00
  +1.66059442844e+00
  +1.66005100868e+00
  +1.65952039372e+00
  +1.65900505357e+00
  +1.65850666434e+00
  +1.65802445919e+00
  +1.65756363511e+00
  +1.65712199608e+00
  +1.65669972613e+00
  +1.65629842946e+00
  +1.65591830769e+00
  +1.65555805769e+00
  +1.65521915103e+00
  +1.65489859534e+00
  +1.65459682230e+00
  +1.65431303415e+00
  +1.65404713137e+00
  +1.65379567990e+00
  +1.65356168851e+00
  +1.65334133742e+00
  +1.65314106171e+00
  +1.65295021642e+00
  +1.65277215085e+00
  +1.65260532595e+00
  +1.65245032715e+00
  +1.65230510671e+00
  +1.65217123998e+00
  +1.65204687595e+00
  +1.65193226023e+00
  +1.65182458975e+00
  +1.65172324260e+00
  +1.65163234805e+00
  +1.65154559890e+00
  +1.65146857248e+00
  +1.65139517600e+00
  +1.65132630871e+00
  +1.65126227890e+00
  +1.65120498839e+00
  +1.65115110230e+00
  +1.65110209694e+00
  +1.65105734401e+00
  +1.65101570258e+00
  +1.65097820924e+00
  +1.65094303017e+00
  +1.65091056896e+00
  +1.65088113898e+00
  +1.65085509308e+00
  +1.65082920531e+00
  +1.65080369088e+00
  +1.65078194389e+00
  +1.65076195849e+00
  +1.65074342991e+00
  +1.65072654069e+00
  +1.65071091638e+00
  +1.65069564938e+00
  +1.65068297737e+00
  +1.65067132529e+00
  +1.65066020784e+00
  +1.65065040495e+00
  +1.65064077409e+00
  +1.65063230448e+00
  +1.65062543005e+00
  +1.65061846299e+00
  +1.65061142691e+00
  +1.65060526155e+00
  +1.65059802759e+00
  +1.65059229582e+00
  +1.65058728136e+00
  +1.65058324539e+00
  +1.65058000042e+00
  +1.65057758233e+00
  +1.65057442131e+00
  +1.65057178700e+00
  +1.65056929900e+00
  +1.65056680991e+00
  +1.65056475206e+00
  +1.65056288169e+00
  +1.65056082619e+00
  +1.65055926919e+00
</dep>
<dep _net2.Vt time>
  +1.54304195387e+00
  +1.64598985094e+00
  +1.64243902510e+00
  +1.63922589278e+00
  +1.63631839911e+00
  +1.63368767446e+00
  +1.63130730627e+00
  +1.62915342819e+00
  +1.62720498021e+00
  +1.62544145337e+00
  +1.62384593661e+00
  +1.62240224267e+00
  +1.62109492585e+00
  +1.61991384315e+00
  +1.61884511299e+00
  +1.61787800760e+00
  +1.61700204469e+00
  +1.61620967311e+00
  +1.61549309892e+00
  +1.61484431597e+00
  +1.61425719754e+00
  +1.61372497159e+00
  +1.61324511734e+00
  +1.61281026070e+00
  +1.61241655974e+00
  +1.61206011232e+00
  +1.61173750097e+00
  +1.61144665156e+00
  +1.61118254433e+00
  +1.61094397067e+00
  +1.61072865850e+00
  +1.61053369324e+00
  +1.61035695560e+00
  +1.61019719907e+00
  +1.61005186021e+00
  +1.60992073895e+00
  +1.60980202199e+00
  +1.60969459825e+00
  +1.60959708627e+00
  +1.60950990856e+00
  +1.60943028965e+00
  +1.60935898760e+00
  +1.60929162687e+00
  +1.60923247393e+00
  +1.60917896050e+00
  +1.60913098933e+00
  +1.60908743107e+00
  +1.60904855283e+00
  +1.60901282841e+00
  +1.60898050607e+00
  +1.60895083531e+00
  +1.60892463796e+00
  +1.60890174284e+00
  +1.60887953512e+00
  +1.60886073475e+00
  +1.60884209545e+00
  +1.60882625342e+00
  +1.60881245312e+00
  +1.60880021114e+00
  +1.60878822319e+00
  +1.60877787470e+00
  +1.60876815481e+00
  +1.60875911471e+00
  +1.60875110715e+00
  +1.60874338332e+00
  +1.60873668921e+00
  +1.60873064312e+00
  +1.60872492050e+00
  +1.60871918625e+00
  +1.60871491573e+00
  +1.60871193726e+00
  +1.60870840681e+00
  +1.60870519819e+00
  +1.60870238554e+00
  +1.60869976834e+00
  +1.60869744227e+00
  +1.60869582938e+00
  +1.60869370074e+00
  +1.60869176828e+00
  +1.60869023035e+00
  +1.60868863016e+00
  +1.60868752254e+00
  +1.60868632751e+00
  +1.60868478178e+00
  +1.60868369301e+00
  +1.60868303706e+00
  +1.60868231114e+00
  +1.60868247714e+00
  +1.60868221560e+00
  +1.60868187252e+00
  +1.60868128869e+00
  +1.60868052028e+00
  +1.60867951938e+00
  +1.60867907252e+00
  +1.60867852974e+00
  +1.60867806734e+00
  +1.60867775138e+00
  +1.60867734930e+00
  +1.60867697104e+00
  +1.60867680104e+00
  +1.60867648409e+00
</dep>
<dep _net0.Vt time>
  +1.64981733245e+00
  +1.65354299011e+00
  +1.65656244572e+00
  +1.65897362620e+00
  +1.66086482603e+00
  +1.66231276583e+00
  +1.66338481663e+00
  +1.66413950525e+00
  +1.66462657378e+00
  +1.66489190101e+00
  +1.66497205880e+00
  +1.66490022733e+00
  +1.66470656076e+00
  +1.66440946921e+00
  +1.66403385527e+00
  +1.66359742581e+00
  +1.66311673000e+00
  +1.66260206870e+00
  +1.66206392192e+00
  +1.66151291664e+00
  +1.66095578713e+00
  +1.66040046734e+00
  +1.65984649357e+00
  +1.65930309050e+00
  +1.65877249216e+00
  +1.65825716843e+00
  +1.65775879532e+00
  +1.65727660610e+00
  +1.65681579719e+00
  +1.65637417295e+00
  +1.65595191726e+00
  +1.65555063428e+00
  +1.65517052554e+00
  +1.65481028797e+00
  +1.65447139308e+00
  +1.65415084856e+00
  +1.65384908611e+00
  +1.65356530794e+00
  +1.65329941457e+00
  +1.65304797204e+00
  +1.65281398898e+00
  +1.65259364578e+00
  +1.65239337722e+00
  +1.65220253878e+00
  +1.65202447963e+00
  +1.65185766077e+00
  +1.65170266759e+00
  +1.65155745244e+00
  +1.65142359058e+00
  +1.65129923109e+00
  +1.65118461955e+00
  +1.65107695301e+00
  +1.65097560960e+00
  +1.65088471839e+00
  +1.65079797244e+00
  +1.65072094892e+00
  +1.65064755506e+00
  +1.65057869034e+00
  +1.65051466291e+00
  +1.65045737452e+00
  +1.65040349043e+00
  +1.65035448690e+00
  +1.65030973562e+00
  +1.65026809575e+00
  +1.65023060380e+00
  +1.65019542604e+00
  +1.65016296604e+00
  +1.65013353717e+00
  +1.65010749229e+00
  +1.65008160542e+00
  +1.65005609195e+00
  +1.65003434578e+00
  +1.65001436113e+00
  +1.64999583325e+00
  +1.64997894467e+00
  +1.64996332094e+00
  +1.64994805453e+00
  +1.64993538299e+00
  +1.64992373135e+00
  +1.64991261431e+00
  +1.64990281179e+00
  +1.64989318130e+00
  +1.64988471201e+00
  +1.64987783783e+00
  +1.64987087104e+00
  +1.64986383522e+00
  +1.64985767010e+00
  +1.64985043642e+00
  +1.64984470488e+00
  +1.64983969061e+00
  +1.64983565480e+00
  +1.64983240994e+00
  +1.64982999193e+00
  +1.64982683104e+00
  +1.64982419681e+00
  +1.64982170892e+00
  +1.64981921992e+00
  +1.64981716215e+00
  +1.64981529185e+00
  +1.64981323643e+00
  +1.64981167949e+00
</dep>
<dep _net1.Vt time>
  +1.20000000000e+01
  +1.20000000000e+01
  +1.20000000000e+01
  +1.20000000000e+01
  +1.20000000000e+01
  +1.20000000000e+01
  +1.20000000000e+01
  +1.20000000000e+01
  +1.20000000000e+01
  +1.20000000000e+01
  +1.20000000000e+01
  +1.20000000000e+01
  +1.20000000000e+01
  +1.20000000000e+01
  +1.20000000000e+01
  +1.20000000000e+01
  +1.20000000000e+01
  +1.20000000000e+01
  +1.20000000000e+01
  +1.20000000000e+01
  +1.20000000000e+01
  +1.20000000000e+01
  +1.20000000000e+01
  +1.20000000000e+01
  +1.20000000000e+01
  +1.20000000000e+01
  +1.20000000000e+01
  +1.20000000000e+01
  +1.20000000000e+01
  +1.20000000000e+01
  +1.20000000000e+01
  +1.20000000000e+01
  +1.20000000000e+01
  +1.20000000000e+01
  +1.20000000000e+01
  +1.20000000000e+01
  +1.20000000000e+01
  +1.20000000000e+01
  +1.20000000000e+01
  +1.20000000000e+01
  +1.20000000000e+01
  +1.20000000000e+01
  +1.20000000000e+01
  +1.20000000000e+01
  +1.20000000000e+01
  +1.20000000000e+01
  +1.20000000000e+01
  +1.20000000000e+01
  +1.20000000000e+01
  +1.20000000000e+01
  +1.20000000000e+01
  +1.20000000000e+01
  +1.20000000000e+01
  +1.20000000000e+01
  +1.20000000000e+01
  +1.20000000000e+01
  +1.20000000000e+01
  +1.20000000000e+01
  +1.20000000000e+01
  +1.20000000000e+01
  +1.20000000000e+01
  +1.20000000000e+01
  +1.20000000000e+01
  +1.20000000000e+01
  +1.20000000000e+01
  +1.20000000000e+01
  +1.20000000000e+01
  +1.20000000000e+01
  +1.20000000000e+01
  +1.20000000000e+01
  +1.20000000000e+01
  +1.20000000000e+01
  +1.20000000000e+01
  +1.20000000000e+01
  +1.20000000000e+01
  +1.20000000000e+01
  +1.20000000000e+01
  +1.20000000000e+01
  +1.20000000000e+01
  +1.20000000000e+01
  +1.20000000000e+01
  +1.20000000000e+01
  +1.20000000000e+01
  +1.20000000000e+01
  +1.20000000000e+01
  +1.20000000000e+01
  +1.20000000000e+01
  +1.20000000000e+01
  +1.20000000000e+01
  +1.20000000000e+01
  +1.20000000000e+01
  +1.20000000000e+01
  +1.20000000000e+01
  +1.20000000000e+01
  +1.20000000000e+01
  +1.20000000000e+01
  +1.20000000000e+01
  +1.20000000000e+01
  +1.20000000000e+01
  +1.20000000000e+01
  +1.20000000000e+01
</dep>
<indep V3.I 1>
  -8.00002993117e-16
</indep>
<indep V4.I 1>
  -9.12464862302e-08
</indep>
<indep vin.V 1>
  +1.65000000000e+00
</indep>
<indep vout.V 1>
  +1.65056133614e+00
</indep>
<indep _net2.V 1>
  +1.64990875351e+00
</indep>
<indep _net0.V 1>
  +1.64981750703e+00
</indep>
<indep _net1.V 1>
  +1.20000000000e+01
</indep>
